Freq (GHz), S11 Mag (dB), S11 Phase (deg), S12 Mag (dB), S12 Phase (deg), S21 Mag (dB), S21 Phase (deg), S22 Mag (dB), S22 Phase (deg)
1.010000000000000009e+00,-5.898926000000000336e+00,-4.603515999999999764e+01,-2.779492000000000118e+01,2.135448999999999842e+01,-2.780077999999999960e+01,-2.042114000000000207e+00,-4.938476999999999784e+00,-1.032147999999999968e+02
1.019950248756218869e+00,-5.878662000000000276e+00,-6.430078000000000316e+01,-2.766210999999999842e+01,8.374022999999999328e+00,-2.764648000000000039e+01,-1.506104000000000021e+01,-4.977539000000000158e+00,-1.106367000000000047e+02
1.029900497512437729e+00,-5.929687999999999626e+00,-8.262890000000000157e+01,-2.752929999999999922e+01,-4.376708999999999961e+00,-2.743554999999999922e+01,-2.812012000000000000e+01,-4.960205000000000197e+00,-1.182733999999999952e+02
1.039850746268656589e+00,-5.974853999999999665e+00,-1.016328000000000031e+02,-2.730370999999999881e+01,-1.759277000000000157e+01,-2.724120999999999881e+01,-4.139844000000000079e+01,-4.947753999999999763e+00,-1.262852000000000032e+02
1.049800995024875450e+00,-5.962646000000000335e+00,-1.213710999999999984e+02,-2.709178999999999959e+01,-3.096094000000000079e+01,-2.696386000000000038e+01,-5.508594000000000079e+01,-4.985107000000000177e+00,-1.335312000000000126e+02
1.059751243781094310e+00,-6.042724999999999902e+00,-1.417656000000000063e+02,-2.683007999999999882e+01,-4.444140000000000157e+01,-2.675975999999999999e+01,-6.886718999999999369e+01,-5.016112999999999822e+00,-1.415468999999999937e+02
1.069701492537313170e+00,-6.119385000000000296e+00,-1.623515999999999906e+02,-2.658886000000000038e+01,-5.824412999999999840e+01,-2.654393999999999920e+01,-8.247265000000000157e+01,-5.001953000000000316e+00,-1.486875000000000000e+02
1.079651741293532030e+00,-6.221680000000000099e+00,1.762421999999999969e+02,-2.630176000000000158e+01,-7.190233999999999526e+01,-2.628320000000000078e+01,-9.656250000000000000e+01,-4.973876999999999882e+00,-1.561562999999999874e+02
1.089601990049750890e+00,-6.279296999999999684e+00,1.544921999999999969e+02,-2.599120999999999881e+01,-8.657420999999999367e+01,-2.610058000000000078e+01,-1.109727000000000032e+02,-4.981444999999999901e+00,-1.640312000000000126e+02
1.099552238805969751e+00,-6.344482000000000177e+00,1.325312000000000126e+02,-2.585350999999999999e+01,-1.014414000000000016e+02,-2.596289000000000158e+01,-1.248007999999999953e+02,-4.986328000000000316e+00,-1.715546999999999969e+02
1.109502487562188611e+00,-6.344726999999999784e+00,1.103397999999999968e+02,-2.575195000000000078e+01,-1.163828000000000031e+02,-2.582811999999999841e+01,-1.391953000000000031e+02,-4.937500000000000000e+00,-1.788281000000000063e+02
1.119452736318407471e+00,-6.384521000000000335e+00,8.908593999999999369e+01,-2.565429999999999922e+01,-1.304062000000000126e+02,-2.572655999999999921e+01,-1.531250000000000000e+02,-4.914306999999999981e+00,1.734609000000000094e+02
1.129402985074626331e+00,-6.298828000000000316e+00,6.798828000000000316e+01,-2.556933000000000078e+01,-1.450781000000000063e+02,-2.555957000000000079e+01,-1.674531000000000063e+02,-4.891112999999999822e+00,1.661171999999999969e+02
1.139353233830845191e+00,-6.256103999999999665e+00,4.716405999999999921e+01,-2.555077999999999960e+01,-1.590937000000000126e+02,-2.544725999999999999e+01,1.790389999999999873e+02,-4.878173999999999566e+00,1.586484000000000094e+02
1.149303482587064051e+00,-6.165771000000000335e+00,2.683887000000000000e+01,-2.550096999999999881e+01,-1.733437999999999874e+02,-2.530858999999999881e+01,1.648671999999999969e+02,-4.849609000000000059e+00,1.512500000000000000e+02
1.159253731343282912e+00,-6.071044999999999803e+00,7.245360999999999940e+00,-2.545801000000000158e+01,1.731796999999999969e+02,-2.519238000000000000e+01,1.512500000000000000e+02,-4.817626999999999882e+00,1.436640999999999906e+02
1.169203980099501772e+00,-5.943114999999999704e+00,-1.217577999999999960e+01,-2.538867000000000118e+01,1.599296999999999969e+02,-2.502832000000000079e+01,1.377265999999999906e+02,-4.817383000000000415e+00,1.363515999999999906e+02
1.179154228855720632e+00,-5.875487999999999822e+00,-3.152049999999999841e+01,-2.527049999999999841e+01,1.471171999999999969e+02,-2.484471999999999881e+01,1.235664000000000016e+02,-4.780762000000000178e+00,1.287890999999999906e+02
1.189104477611939492e+00,-5.860107000000000177e+00,-5.052734000000000236e+01,-2.513573999999999842e+01,1.337890999999999906e+02,-2.476464999999999961e+01,1.099022999999999968e+02,-4.759765999999999941e+00,1.212225999999999999e+02
1.199054726368158352e+00,-5.810058999999999862e+00,-6.971873999999999683e+01,-2.497850999999999999e+01,1.203632999999999953e+02,-2.452343000000000117e+01,9.569530000000000314e+01,-4.749755999999999645e+00,1.138242000000000047e+02
1.209004975124377212e+00,-5.857421999999999684e+00,-8.895310999999999524e+01,-2.477344000000000079e+01,1.067421999999999969e+02,-2.440136000000000038e+01,8.194138999999999839e+01,-4.744385000000000296e+00,1.063944999999999936e+02
1.218955223880596073e+00,-5.864989999999999704e+00,-1.081875000000000000e+02,-2.452832000000000079e+01,9.369920999999999367e+01,-2.426855000000000118e+01,6.764843000000000472e+01,-4.748291000000000039e+00,9.850780000000000314e+01
1.228905472636814933e+00,-5.990234000000000059e+00,-1.276328000000000031e+02,-2.434277000000000157e+01,7.944920999999999367e+01,-2.410936999999999841e+01,5.390625000000000000e+01,-4.744385000000000296e+00,9.066796999999999684e+01
1.238855721393033793e+00,-6.057616999999999585e+00,-1.472812000000000126e+02,-2.414745999999999881e+01,6.549218000000000472e+01,-2.397070000000000078e+01,3.948828000000000316e+01,-4.699707000000000079e+00,8.330078000000000316e+01
1.248805970149252653e+00,-6.149169999999999803e+00,-1.675312999999999874e+02,-2.390820000000000078e+01,5.137695000000000078e+01,-2.387890000000000157e+01,2.577440999999999960e+01,-4.688476999999999784e+00,7.542968999999999369e+01
1.258756218905471513e+00,-6.201903999999999861e+00,1.719687000000000126e+02,-2.373632999999999882e+01,3.686131999999999920e+01,-2.377344000000000079e+01,1.145996000000000059e+01,-4.706055000000000099e+00,6.814453000000000316e+01
1.268706467661690374e+00,-6.257080000000000197e+00,1.512734000000000094e+02,-2.358983999999999881e+01,2.229101999999999961e+01,-2.357323999999999842e+01,-2.682129000000000207e+00,-4.713623000000000118e+00,6.048828000000000316e+01
1.278656716417909234e+00,-6.240967000000000375e+00,1.304453000000000031e+02,-2.352149000000000001e+01,7.856444999999999901e+00,-2.351367000000000118e+01,-1.651172000000000040e+01,-4.790039000000000158e+00,5.283592999999999762e+01
1.288606965174128094e+00,-6.259276999999999980e+00,1.098046999999999969e+02,-2.346483999999999881e+01,-6.131835999999999842e+00,-2.341309000000000040e+01,-3.058105000000000118e+01,-4.777832000000000079e+00,4.527539000000000158e+01
1.298557213930346954e+00,-6.189208999999999961e+00,8.883983999999999526e+01,-2.343358999999999881e+01,-2.019335999999999842e+01,-2.335155999999999921e+01,-4.439453000000000316e+01,-4.804443000000000019e+00,3.732421999999999684e+01
1.308507462686565814e+00,-6.103515999999999941e+00,6.855468999999999369e+01,-2.337108999999999881e+01,-3.384960999999999842e+01,-2.325975999999999999e+01,-5.816405999999999921e+01,-4.855957000000000079e+00,2.987402000000000157e+01
1.318457711442784674e+00,-6.071776999999999980e+00,4.874217999999999762e+01,-2.333594000000000079e+01,-4.754102000000000317e+01,-2.320410000000000039e+01,-7.167186999999999841e+01,-4.889892999999999823e+00,2.206542999999999921e+01
1.328407960199003535e+00,-5.994140999999999941e+00,2.895019999999999882e+01,-2.323436999999999841e+01,-6.086328000000000316e+01,-2.312108999999999881e+01,-8.536718000000000472e+01,-4.905762000000000178e+00,1.448779000000000039e+01
1.338358208955222395e+00,-5.916260000000000296e+00,1.008643000000000001e+01,-2.317186999999999841e+01,-7.338281000000000631e+01,-2.299315999999999960e+01,-9.850388999999999839e+01,-4.971435999999999744e+00,6.825194999999999901e+00
1.348308457711441255e+00,-5.918457000000000079e+00,-8.665527000000000868e+00,-2.297655999999999921e+01,-8.667578000000000316e+01,-2.294434000000000040e+01,-1.114882999999999953e+02,-4.929931999999999981e+00,-1.242858999999999936e+00
1.358258706467660115e+00,-5.871094000000000257e+00,-2.728221999999999881e+01,-2.281152000000000157e+01,-9.993750000000000000e+01,-2.276367000000000118e+01,-1.246367000000000047e+02,-4.993164000000000158e+00,-8.485839999999999606e+00
1.368208955223878975e+00,-5.855224999999999902e+00,-4.552342999999999762e+01,-2.259082000000000079e+01,-1.126641000000000048e+02,-2.259375000000000000e+01,-1.377656000000000063e+02,-5.021484000000000059e+00,-1.647070000000000078e+01
1.378159203980097836e+00,-5.901610999999999940e+00,-6.366210999999999842e+01,-2.231250000000000000e+01,-1.261835999999999984e+02,-2.237304999999999922e+01,-1.505937999999999874e+02,-5.059326000000000434e+00,-2.426757999999999882e+01
1.388109452736316696e+00,-5.866210999999999842e+00,-8.250391000000000474e+01,-2.209472999999999843e+01,-1.397734000000000094e+02,-2.215527000000000157e+01,-1.639687999999999874e+02,-5.047607000000000177e+00,-3.174315999999999960e+01
1.398059701492535556e+00,-5.948485999999999940e+00,-1.013789000000000016e+02,-2.178125000000000000e+01,-1.534843999999999937e+02,-2.181933000000000078e+01,-1.773125000000000000e+02,-5.034180000000000099e+00,-3.946484000000000236e+01
1.408009950248754416e+00,-5.950439000000000256e+00,-1.206093999999999937e+02,-2.151172000000000040e+01,-1.676328000000000031e+02,-2.150488000000000000e+01,1.690781000000000063e+02,-5.041260000000000296e+00,-4.710546000000000078e+01
1.417960199004973276e+00,-6.078125000000000000e+00,-1.409140999999999906e+02,-2.128320000000000078e+01,1.783437000000000126e+02,-2.118652000000000157e+01,1.549375000000000000e+02,-5.041991999999999585e+00,-5.500000000000000000e+01
1.427910447761192136e+00,-6.128417999999999921e+00,-1.615703000000000031e+02,-2.101952999999999960e+01,1.640234000000000094e+02,-2.088183000000000078e+01,1.406406000000000063e+02,-5.000000000000000000e+00,-6.274414000000000158e+01
1.437860696517410997e+00,-6.249023000000000216e+00,1.771093999999999937e+02,-2.080273000000000039e+01,1.496250000000000000e+02,-2.059960999999999842e+01,1.261600999999999999e+02,-5.020264000000000060e+00,-7.053515000000000157e+01
1.447810945273629857e+00,-6.343017999999999823e+00,1.555078000000000031e+02,-2.063476999999999961e+01,1.353437000000000126e+02,-2.036719000000000079e+01,1.111055000000000064e+02,-4.956298999999999566e+00,-7.822266000000000474e+01
1.457761194029848717e+00,-6.425292999999999921e+00,1.333828000000000031e+02,-2.043358999999999881e+01,1.211757999999999953e+02,-2.021777000000000157e+01,9.630468000000000472e+01,-4.947021000000000335e+00,-8.614843000000000472e+01
1.467711442786067577e+00,-6.427489999999999704e+00,1.115819999999999936e+02,-2.026660000000000039e+01,1.065350999999999999e+02,-2.001172000000000040e+01,8.179688000000000159e+01,-4.886474999999999902e+00,-9.428513999999999839e+01
1.477661691542286437e+00,-6.487792999999999921e+00,9.012109999999999843e+01,-2.019823999999999842e+01,9.243750000000000000e+01,-1.993554999999999922e+01,6.708983999999999526e+01,-4.841553000000000218e+00,-1.022147999999999968e+02
1.487611940298505298e+00,-6.387207000000000079e+00,6.990233999999999526e+01,-1.992382999999999882e+01,7.896873999999999683e+01,-1.980858999999999881e+01,5.335546000000000078e+01,-4.695068000000000019e+00,-1.098867000000000047e+02
1.497562189054724158e+00,-6.353760000000000296e+00,4.943164000000000158e+01,-1.974608999999999881e+01,6.457031000000000631e+01,-1.970507999999999882e+01,3.912890000000000157e+01,-4.652099999999999902e+00,-1.174766000000000048e+02
1.507512437810943018e+00,-6.311278999999999861e+00,2.996582000000000079e+01,-1.957519999999999882e+01,5.082225999999999999e+01,-1.954686999999999841e+01,2.514551000000000158e+01,-4.639892999999999823e+00,-1.257813000000000017e+02
1.517462686567161878e+00,-6.193603999999999665e+00,1.069092000000000020e+01,-1.940137000000000000e+01,3.664453000000000316e+01,-1.945313000000000159e+01,1.120166000000000039e+01,-4.614989999999999704e+00,-1.341250000000000000e+02
1.527412935323380738e+00,-6.098633000000000415e+00,-8.333496000000000237e+00,-1.920117000000000118e+01,2.280176000000000158e+01,-1.927440999999999960e+01,-2.267333999999999961e+00,-4.625732000000000177e+00,-1.422734000000000094e+02
1.537363184079599598e+00,-6.045410000000000394e+00,-2.740820000000000078e+01,-1.900488000000000000e+01,8.705078000000000316e+00,-1.907910000000000039e+01,-1.594970999999999961e+01,-4.621337999999999724e+00,-1.501328000000000031e+02
1.547313432835818459e+00,-5.960693000000000019e+00,-4.625000000000000000e+01,-1.880469000000000079e+01,-5.568848000000000020e+00,-1.886914000000000158e+01,-2.985351999999999961e+01,-4.607421999999999684e+00,-1.582968999999999937e+02
1.557263681592037319e+00,-5.920898000000000216e+00,-6.566795999999999367e+01,-1.859766000000000119e+01,-1.989648000000000039e+01,-1.862500000000000000e+01,-4.417772999999999683e+01,-4.619385000000000296e+00,-1.663906000000000063e+02
1.567213930348256179e+00,-5.957030999999999743e+00,-8.531641000000000474e+01,-1.839844000000000079e+01,-3.446875000000000000e+01,-1.838768999999999920e+01,-5.859570000000000078e+01,-4.649169999999999803e+00,-1.740625000000000000e+02
1.577164179104475039e+00,-6.031005999999999645e+00,-1.061561999999999983e+02,-1.816308000000000078e+01,-4.918750000000000000e+01,-1.816894999999999882e+01,-7.295703000000000316e+01,-4.669678000000000218e+00,1.780546999999999969e+02
1.587114427860693899e+00,-6.223389000000000060e+00,-1.275664000000000016e+02,-1.806250000000000000e+01,-6.376366999999999763e+01,-1.793065999999999960e+01,-8.765625000000000000e+01,-4.770508000000000415e+00,1.704296999999999969e+02
1.597064676616912759e+00,-6.419189000000000256e+00,-1.493359000000000094e+02,-1.787890000000000157e+01,-7.864061999999999841e+01,-1.784277000000000157e+01,-1.028436999999999983e+02,-4.809569999999999901e+00,1.628593999999999937e+02
1.607014925373131620e+00,-6.624512000000000178e+00,-1.719921999999999969e+02,-1.784570000000000078e+01,-9.333593000000000472e+01,-1.775488000000000000e+01,-1.177225999999999999e+02,-4.827392999999999823e+00,1.552109000000000094e+02
1.616965174129350480e+00,-6.781005999999999645e+00,1.650312000000000126e+02,-1.769823999999999842e+01,-1.078906000000000063e+02,-1.768262000000000000e+01,-1.321562999999999874e+02,-4.894775000000000098e+00,1.478593999999999937e+02
1.626915422885569340e+00,-6.917235999999999940e+00,1.422343999999999937e+02,-1.770605000000000118e+01,-1.223710999999999984e+02,-1.763184000000000040e+01,-1.466328000000000031e+02,-4.933349999999999902e+00,1.405312999999999874e+02
1.636865671641788200e+00,-6.915282999999999625e+00,1.192108999999999952e+02,-1.761523000000000039e+01,-1.367578000000000031e+02,-1.762304999999999922e+01,-1.611406000000000063e+02,-4.980957000000000079e+00,1.331015999999999906e+02
1.646815920398007060e+00,-6.946289000000000158e+00,9.722265000000000157e+01,-1.761620999999999881e+01,-1.507343999999999937e+02,-1.760350999999999999e+01,-1.751640999999999906e+02,-4.974609000000000059e+00,1.258750000000000000e+02
1.656766169154225921e+00,-6.658691000000000138e+00,7.547656000000000631e+01,-1.759472999999999843e+01,-1.648984000000000094e+02,-1.756542999999999921e+01,1.709921999999999969e+02,-4.994628999999999763e+00,1.187811999999999983e+02
1.666716417910444781e+00,-6.503417999999999921e+00,5.446484000000000236e+01,-1.754297000000000040e+01,-1.785078000000000031e+02,-1.754004000000000119e+01,1.574218999999999937e+02,-5.068359000000000059e+00,1.115039000000000016e+02
1.676666666666663641e+00,-6.301758000000000415e+00,3.482030999999999921e+01,-1.751561999999999841e+01,1.679375000000000000e+02,-1.744629000000000119e+01,1.440312000000000126e+02,-5.017578000000000316e+00,1.044805000000000064e+02
1.686616915422882501e+00,-6.055907999999999625e+00,1.570898000000000039e+01,-1.745117000000000118e+01,1.548046999999999969e+02,-1.735547000000000040e+01,1.307343999999999937e+02,-5.004150000000000098e+00,9.716406000000000631e+01
1.696567164179101361e+00,-5.891601999999999784e+00,-2.632690000000000197e+00,-1.737012000000000000e+01,1.414453000000000031e+02,-1.722948999999999842e+01,1.174141000000000048e+02,-4.982421999999999684e+00,9.010545999999999367e+01
1.706517412935320221e+00,-5.715087999999999724e+00,-2.053027000000000157e+01,-1.722460999999999842e+01,1.286484000000000094e+02,-1.710839999999999961e+01,1.040781000000000063e+02,-5.069580000000000197e+00,8.231248999999999683e+01
1.716467661691539082e+00,-5.686278999999999861e+00,-3.791015999999999764e+01,-1.708887000000000000e+01,1.156289000000000016e+02,-1.696582000000000079e+01,9.050390000000000157e+01,-4.999512000000000178e+00,7.481640000000000157e+01
1.726417910447757942e+00,-5.692139000000000060e+00,-5.508594000000000079e+01,-1.690527000000000157e+01,1.027382999999999953e+02,-1.677929999999999922e+01,7.752343000000000472e+01,-5.018798999999999566e+00,6.717578000000000316e+01
1.736368159203976802e+00,-5.726562999999999626e+00,-7.229296999999999684e+01,-1.662207000000000079e+01,8.951171999999999684e+01,-1.657617000000000118e+01,6.442576999999999998e+01,-4.998535000000000394e+00,5.974022999999999683e+01
1.746318407960195662e+00,-5.864014000000000060e+00,-8.909373999999999683e+01,-1.636914000000000158e+01,7.645311999999999841e+01,-1.632617000000000118e+01,5.146092999999999762e+01,-4.953369000000000355e+00,5.196679000000000315e+01
1.756268656716414522e+00,-6.079346000000000139e+00,-1.060000000000000000e+02,-1.598241999999999940e+01,6.306835000000000235e+01,-1.604980000000000118e+01,3.795897999999999683e+01,-4.940430000000000099e+00,4.405662999999999840e+01
1.766218905472633383e+00,-6.270996000000000237e+00,-1.237031000000000063e+02,-1.566309000000000040e+01,4.969727000000000317e+01,-1.577685999999999922e+01,2.509375000000000000e+01,-5.044433999999999862e+00,3.595508000000000237e+01
1.776169154228852243e+00,-6.590576000000000434e+00,-1.416796999999999969e+02,-1.529101999999999961e+01,3.581835999999999842e+01,-1.539746000000000059e+01,1.158643000000000001e+01,-4.992431999999999981e+00,2.754492000000000118e+01
1.786119402985071103e+00,-6.862792999999999921e+00,-1.608046999999999969e+02,-1.490282999999999980e+01,2.193652000000000157e+01,-1.501366999999999940e+01,-2.112182999999999922e+00,-5.070312999999999626e+00,1.958105000000000118e+01
1.796069651741289963e+00,-7.202880999999999645e+00,1.790468999999999937e+02,-1.448925999999999981e+01,7.694335999999999842e+00,-1.461963000000000079e+01,-1.610351999999999961e+01,-5.120360999999999940e+00,1.135693000000000019e+01
1.806019900497508823e+00,-7.441405999999999743e+00,1.575546999999999969e+02,-1.408643000000000001e+01,-7.100098000000000020e+00,-1.418554999999999922e+01,-3.067870999999999881e+01,-5.201416000000000039e+00,3.221680000000000099e+00
1.815970149253727683e+00,-7.690430000000000099e+00,1.347812000000000126e+02,-1.373827999999999960e+01,-2.211327999999999960e+01,-1.376416000000000039e+01,-4.570897999999999683e+01,-5.247069999999999901e+00,-5.187012000000000178e+00
1.825920398009946544e+00,-7.772705000000000197e+00,1.107617000000000047e+02,-1.338184000000000040e+01,-3.764061999999999841e+01,-1.336475000000000080e+01,-6.095703000000000316e+01,-5.381835999999999842e+00,-1.339550999999999981e+01
1.835870646766165404e+00,-7.806885000000000296e+00,8.653515000000000157e+01,-1.307764000000000060e+01,-5.317576999999999998e+01,-1.305518000000000001e+01,-7.661718000000000472e+01,-5.466796999999999684e+00,-2.147754000000000119e+01
1.845820895522384264e+00,-7.782226999999999784e+00,6.236717999999999762e+01,-1.286279000000000039e+01,-6.867578000000000316e+01,-1.287157999999999980e+01,-9.257420999999999367e+01,-5.562500000000000000e+00,-2.957030999999999921e+01
