Freq (Hz), Test Phi (deg), Test Theta (deg), Probe Phi (deg), S11 (db), S11 (deg), S12 (db), S12 (deg), S21 (db), S21 (deg), S22 (db), S22 (deg)
-1.000000000000000000e+00,-1.000000000000000000e+00,-1.000000000000000000e+00,-1.000000000000000000e+00,-1.000000000000000000e+00,-1.000000000000000000e+00,-1.000000000000000000e+00,-1.000000000000000000e+00,-1.000000000000000000e+00,-1.000000000000000000e+00,-1.000000000000000000e+00,-1.000000000000000000e+00
1.400000000000000000e+08,1.000000000000000000e+00,2.000000000000000000e+00,3.000000000000000000e+00,-3.235352000000000317e+01,-7.148828000000000316e+01,-2.520214999999999961e+01,2.082519999999999882e+01,-2.256053999999999959e+01,-3.207421999999999684e+01,-2.667285000000000039e+01,-1.000156000000000063e+02
1.523000000000000000e+08,1.000000000000000000e+00,2.000000000000000000e+00,3.000000000000000000e+00,-3.056054999999999922e+01,-1.475312000000000126e+02,-2.362304999999999922e+01,-4.998241000000000156e+01,-2.206542999999999921e+01,-1.029140000000000015e+02,-2.551464999999999961e+01,1.598593999999999937e+02
1.646000000000000000e+08,1.000000000000000000e+00,2.000000000000000000e+00,3.000000000000000000e+00,-2.581054999999999922e+01,1.561250000000000000e+02,-2.221386000000000038e+01,-1.202694999999999936e+02,-2.158886000000000038e+01,-1.727578000000000031e+02,-2.474902000000000157e+01,6.173046000000000078e+01
1.769000000000000000e+08,1.000000000000000000e+00,2.000000000000000000e+00,3.000000000000000000e+00,-2.333690999999999960e+01,1.181093999999999937e+02,-2.112108999999999881e+01,1.626328000000000031e+02,-2.110155999999999921e+01,1.163750000000000000e+02,-2.404198999999999842e+01,-3.680469000000000079e+01
1.892000000000000000e+08,1.000000000000000000e+00,2.000000000000000000e+00,3.000000000000000000e+00,-2.217089999999999961e+01,7.868358999999999526e+01,-2.113475999999999999e+01,8.367579000000000633e+01,-2.086132999999999882e+01,4.617772999999999683e+01,-2.322266000000000119e+01,-1.347968999999999937e+02
2.015000000000000000e+08,1.000000000000000000e+00,2.000000000000000000e+00,3.000000000000000000e+00,-2.160058000000000078e+01,4.020897999999999683e+01,-2.159570000000000078e+01,1.134570000000000078e+01,-2.049804999999999922e+01,-2.307422000000000040e+01,-2.239745999999999881e+01,1.291718999999999937e+02
2.138000000000000000e+08,1.000000000000000000e+00,2.000000000000000000e+00,3.000000000000000000e+00,-2.171875000000000000e+01,2.231567000000000078e+00,-2.232323999999999842e+01,-5.537109000000000236e+01,-1.999315999999999960e+01,-9.403906000000000631e+01,-2.153905999999999921e+01,2.967676000000000158e+01
2.261000000000000000e+08,1.000000000000000000e+00,2.000000000000000000e+00,3.000000000000000000e+00,-2.110351999999999961e+01,-3.980272999999999683e+01,-2.202637000000000000e+01,-1.248007999999999953e+02,-1.995898000000000039e+01,-1.648437999999999874e+02,-2.085643999999999920e+01,-7.383593999999999369e+01
2.384000000000000000e+08,1.000000000000000000e+00,2.000000000000000000e+00,3.000000000000000000e+00,-2.072363000000000000e+01,-8.201171999999999684e+01,-2.192577999999999960e+01,1.726406000000000063e+02,-1.988280999999999921e+01,1.270664000000000016e+02,-2.013475999999999999e+01,-1.729453000000000031e+02
2.507000000000000000e+08,1.000000000000000000e+00,2.000000000000000000e+00,3.000000000000000000e+00,-1.987792999999999921e+01,-1.232694999999999936e+02,-1.938672000000000040e+01,1.031132999999999953e+02,-1.929492000000000118e+01,5.896092999999999762e+01,-1.937597999999999843e+01,8.929295999999999367e+01
2.630000000000000000e+08,1.000000000000000000e+00,2.000000000000000000e+00,3.000000000000000000e+00,-1.891405999999999921e+01,-1.630703000000000031e+02,-1.883007999999999882e+01,3.105469000000000079e+01,-1.894238000000000000e+01,-1.180077999999999960e+01,-1.921190999999999960e+01,-1.196582000000000079e+01
2.753000000000000000e+08,1.000000000000000000e+00,2.000000000000000000e+00,3.000000000000000000e+00,-1.800976999999999961e+01,1.546718999999999937e+02,-1.834082000000000079e+01,-4.081054999999999922e+01,-1.879492000000000118e+01,-8.105859999999999843e+01,-1.886132999999999882e+01,-1.083867000000000047e+02
2.876000000000000000e+08,1.000000000000000000e+00,2.000000000000000000e+00,3.000000000000000000e+00,-1.765039000000000158e+01,1.125585999999999984e+02,-1.782910000000000039e+01,-1.145742000000000047e+02,-1.834570000000000078e+01,-1.502421999999999969e+02,-1.819335999999999842e+01,1.567031000000000063e+02
2.999000000000000000e+08,1.000000000000000000e+00,2.000000000000000000e+00,3.000000000000000000e+00,-1.752148000000000039e+01,7.449608999999999526e+01,-1.783495999999999881e+01,1.718281000000000063e+02,-1.801269999999999882e+01,1.389218999999999937e+02,-1.809082000000000079e+01,5.690429999999999922e+01
3.122000000000000000e+08,1.000000000000000000e+00,2.000000000000000000e+00,3.000000000000000000e+00,-1.719042999999999921e+01,3.644140000000000157e+01,-1.828027000000000157e+01,1.014882999999999953e+02,-1.800683000000000078e+01,6.863670999999999367e+01,-1.778222999999999843e+01,-4.706835999999999842e+01
3.245000000000000000e+08,1.000000000000000000e+00,2.000000000000000000e+00,3.000000000000000000e+00,-1.693262000000000000e+01,-2.616210999999999842e+00,-1.854297000000000040e+01,3.358984000000000236e+01,-1.793457000000000079e+01,-5.905151000000000150e-02,-1.698926000000000158e+01,-1.470781000000000063e+02
3.368000000000000000e+08,1.000000000000000000e+00,2.000000000000000000e+00,3.000000000000000000e+00,-1.666797000000000040e+01,-4.411328000000000316e+01,-1.840527000000000157e+01,-3.209179000000000315e+01,-1.760155999999999921e+01,-6.798436999999999841e+01,-1.660448999999999842e+01,1.188789000000000016e+02
3.491000000000000000e+08,1.000000000000000000e+00,2.000000000000000000e+00,3.000000000000000000e+00,-1.679492000000000118e+01,-8.469141000000000474e+01,-1.775097999999999843e+01,-9.890233999999999526e+01,-1.715233999999999881e+01,-1.376093999999999937e+02,-1.671190999999999960e+01,2.134277000000000157e+01
3.614000000000000000e+08,1.000000000000000000e+00,2.000000000000000000e+00,3.000000000000000000e+00,-1.680957000000000079e+01,-1.248203000000000031e+02,-1.709179999999999922e+01,-1.683515999999999906e+02,-1.687792999999999921e+01,1.514609000000000094e+02,-1.644140000000000157e+01,-8.228906999999999528e+01
3.737000000000000000e+08,1.000000000000000000e+00,2.000000000000000000e+00,3.000000000000000000e+00,-1.565967000000000020e+01,-1.665389999999999873e+02,-1.655565999999999960e+01,1.207460999999999984e+02,-1.680957000000000079e+01,8.219141000000000474e+01,-1.597119000000000000e+01,1.787734000000000094e+02
3.860000000000000000e+08,1.000000000000000000e+00,2.000000000000000000e+00,3.000000000000000000e+00,-1.532616999999999940e+01,1.531406000000000063e+02,-1.598145000000000060e+01,5.044140000000000157e+01,-1.651855000000000118e+01,1.399219000000000079e+01,-1.578711000000000020e+01,8.288670999999999367e+01
3.983000000000000000e+08,1.000000000000000000e+00,2.000000000000000000e+00,3.000000000000000000e+00,-1.505029000000000039e+01,1.146600999999999999e+02,-1.558984000000000059e+01,-2.246483999999999881e+01,-1.607422000000000040e+01,-5.587304000000000315e+01,-1.577929999999999922e+01,-1.808789000000000158e+01
4.106000000000000000e+08,1.000000000000000000e+00,2.000000000000000000e+00,3.000000000000000000e+00,-1.470166000000000039e+01,7.500390000000000157e+01,-1.568262000000000000e+01,-9.510936999999999841e+01,-1.589258000000000060e+01,-1.261132999999999953e+02,-1.568994000000000000e+01,-1.178710999999999984e+02
4.229000000000000000e+08,1.000000000000000000e+00,2.000000000000000000e+00,3.000000000000000000e+00,-1.470946999999999960e+01,3.283789000000000158e+01,-1.567871000000000059e+01,-1.639687999999999874e+02,-1.558984000000000059e+01,1.649687999999999874e+02,-1.537695000000000078e+01,1.484140999999999906e+02
4.352000000000000000e+08,1.000000000000000000e+00,2.000000000000000000e+00,3.000000000000000000e+00,-1.518115000000000059e+01,-8.281250000000000000e+00,-1.532666000000000039e+01,1.268397999999999968e+02,-1.504979999999999940e+01,9.469530000000000314e+01,-1.549219000000000079e+01,5.103515999999999764e+01
4.475000000000000000e+08,1.000000000000000000e+00,2.000000000000000000e+00,3.000000000000000000e+00,-1.536327999999999960e+01,-4.769921000000000078e+01,-1.518115000000000059e+01,5.660741999999999763e+01,-1.476024999999999920e+01,2.314745999999999881e+01,-1.579003999999999941e+01,-5.464647999999999683e+01
4.598000000000000000e+08,1.000000000000000000e+00,2.000000000000000000e+00,3.000000000000000000e+00,-1.517969000000000079e+01,-8.942576999999999998e+01,-1.484473000000000020e+01,-1.124609000000000059e+01,-1.455957000000000079e+01,-4.649804000000000315e+01,-1.536035000000000039e+01,-1.557656000000000063e+02
4.721000000000000000e+08,1.000000000000000000e+00,2.000000000000000000e+00,3.000000000000000000e+00,-1.517529000000000039e+01,-1.323593999999999937e+02,-1.401318000000000019e+01,-8.089453000000000316e+01,-1.395312999999999981e+01,-1.167500000000000000e+02,-1.549268000000000001e+01,1.077578000000000031e+02
4.844000000000000000e+08,1.000000000000000000e+00,2.000000000000000000e+00,3.000000000000000000e+00,-1.541405999999999921e+01,-1.738515999999999906e+02,-1.321729000000000021e+01,-1.529296999999999969e+02,-1.340869000000000000e+01,1.710625000000000000e+02,-1.644140000000000157e+01,6.396728999999999665e+00
4.967000000000000000e+08,1.000000000000000000e+00,2.000000000000000000e+00,3.000000000000000000e+00,-1.559717000000000020e+01,1.456796999999999969e+02,-1.267969000000000079e+01,1.328828000000000031e+02,-1.315869000000000000e+01,9.830858000000000629e+01,-1.649315999999999960e+01,-9.950781000000000631e+01
5.090000000000000000e+08,1.000000000000000000e+00,2.000000000000000000e+00,3.000000000000000000e+00,-1.595946999999999960e+01,1.048906000000000063e+02,-1.246338000000000079e+01,5.948631999999999920e+01,-1.293994000000000000e+01,2.703710999999999842e+01,-1.631347999999999843e+01,1.611250000000000000e+02
5.213000000000000000e+08,1.000000000000000000e+00,2.000000000000000000e+00,3.000000000000000000e+00,-1.690137000000000000e+01,6.192576999999999998e+01,-1.217139000000000060e+01,-1.290234000000000059e+01,-1.242871000000000059e+01,-4.372655999999999921e+01,-1.768652000000000157e+01,6.255664000000000158e+01
5.336000000000000000e+08,1.000000000000000000e+00,2.000000000000000000e+00,3.000000000000000000e+00,-1.885839999999999961e+01,2.362304999999999922e+01,-1.167577999999999960e+01,-8.702343000000000472e+01,-1.176416000000000039e+01,-1.172382999999999953e+02,-1.988476999999999961e+01,-4.675390000000000157e+01
5.459000000000000000e+08,1.000000000000000000e+00,2.000000000000000000e+00,3.000000000000000000e+00,-1.966698999999999842e+01,-1.473827999999999960e+01,-1.163720999999999961e+01,-1.615937000000000126e+02,-1.148729999999999940e+01,1.677734000000000094e+02,-2.065039000000000158e+01,-1.487500000000000000e+02
5.582000000000000000e+08,1.000000000000000000e+00,2.000000000000000000e+00,3.000000000000000000e+00,-2.293164000000000158e+01,-7.737890000000000157e+01,-1.134032999999999980e+01,1.263046999999999969e+02,-1.113231999999999999e+01,9.437500000000000000e+01,-2.222070000000000078e+01,1.270664000000000016e+02
5.705000000000000000e+08,1.000000000000000000e+00,2.000000000000000000e+00,3.000000000000000000e+00,-4.257813000000000159e+01,-1.402265999999999906e+02,-1.082958999999999961e+01,5.028125000000000000e+01,-1.069434000000000040e+01,1.809570000000000078e+01,-2.975488000000000000e+01,5.848633000000000237e+01
5.828000000000000000e+08,1.000000000000000000e+00,2.000000000000000000e+00,3.000000000000000000e+00,-3.114061999999999841e+01,-2.297607000000000177e+00,-1.065526999999999980e+01,-2.706835999999999842e+01,-1.057812999999999981e+01,-5.934765000000000157e+01,-3.057518999999999920e+01,6.516406000000000631e+01
5.951000000000000000e+08,1.000000000000000000e+00,2.000000000000000000e+00,3.000000000000000000e+00,-2.271094000000000079e+01,-3.601171000000000078e+01,-1.086815999999999960e+01,-1.051600999999999999e+02,-1.070020000000000060e+01,-1.374765999999999906e+02,-2.337695000000000078e+01,-3.955664000000000158e+01
6.074000000000000000e+08,1.000000000000000000e+00,2.000000000000000000e+00,3.000000000000000000e+00,-1.764061999999999841e+01,-8.814061999999999841e+01,-1.140137000000000000e+01,1.777656000000000063e+02,-1.122606999999999999e+01,1.449375000000000000e+02,-1.760058000000000078e+01,-1.473750000000000000e+02
6.197000000000000000e+08,1.000000000000000000e+00,2.000000000000000000e+00,3.000000000000000000e+00,-1.479199000000000019e+01,-1.393281000000000063e+02,-1.204833999999999961e+01,1.028750000000000000e+02,-1.197411999999999921e+01,6.878906000000000631e+01,-1.470752000000000059e+01,1.163203000000000031e+02
6.320000000000000000e+08,1.000000000000000000e+00,2.000000000000000000e+00,3.000000000000000000e+00,-1.305663999999999980e+01,1.733281000000000063e+02,-1.244922000000000040e+01,2.784960999999999842e+01,-1.267773000000000039e+01,-5.929931999999999981e+00,-1.370264000000000060e+01,1.655469000000000079e+01
6.443000000000000000e+08,1.000000000000000000e+00,2.000000000000000000e+00,3.000000000000000000e+00,-1.188964999999999961e+01,1.298046999999999969e+02,-1.300976999999999961e+01,-4.902147999999999683e+01,-1.336768000000000001e+01,-8.129296999999999684e+01,-1.284131000000000000e+01,-9.199218999999999369e+01
6.566000000000000000e+08,1.000000000000000000e+00,2.000000000000000000e+00,3.000000000000000000e+00,-1.088086000000000020e+01,8.696093000000000472e+01,-1.402100000000000080e+01,-1.253358999999999952e+02,-1.432860999999999940e+01,-1.568125000000000000e+02,-1.172363000000000000e+01,1.632421999999999969e+02
6.689000000000000000e+08,1.000000000000000000e+00,2.000000000000000000e+00,3.000000000000000000e+00,-1.039746000000000059e+01,4.382616999999999763e+01,-1.523779000000000039e+01,1.597343999999999937e+02,-1.544286999999999921e+01,1.301171999999999969e+02,-1.114110999999999940e+01,6.075585000000000235e+01
6.812000000000000000e+08,1.000000000000000000e+00,2.000000000000000000e+00,3.000000000000000000e+00,-1.008202999999999960e+01,2.444458000000000020e+00,-1.658690999999999960e+01,8.697656999999999528e+01,-1.651952999999999960e+01,5.713866999999999763e+01,-1.081250000000000000e+01,-4.456445000000000078e+01
6.935000000000000000e+08,1.000000000000000000e+00,2.000000000000000000e+00,3.000000000000000000e+00,-9.715820000000000789e+00,-3.881250000000000000e+01,-1.797559000000000040e+01,1.632129000000000119e+01,-1.787890000000000157e+01,-1.411621000000000059e+01,-1.001758000000000060e+01,-1.461953000000000031e+02
7.058000000000000000e+08,1.000000000000000000e+00,2.000000000000000000e+00,3.000000000000000000e+00,-9.353027000000000868e+00,-8.108201999999999998e+01,-1.927051000000000158e+01,-5.105078000000000316e+01,-1.892382999999999882e+01,-8.110545999999999367e+01,-9.798339999999999606e+00,1.210156000000000063e+02
7.181000000000000000e+08,1.000000000000000000e+00,2.000000000000000000e+00,3.000000000000000000e+00,-9.119628999999999763e+00,-1.242694999999999936e+02,-1.966992000000000118e+01,-1.168281000000000063e+02,-1.929882999999999882e+01,-1.504375000000000000e+02,-9.905272999999999328e+00,2.765721999999999881e+01
7.304000000000000000e+08,1.000000000000000000e+00,2.000000000000000000e+00,3.000000000000000000e+00,-9.060059000000000751e+00,-1.663203000000000031e+02,-1.986035000000000039e+01,1.680156000000000063e+02,-2.001660000000000039e+01,1.352734000000000094e+02,-9.862792999999999921e+00,-8.011328000000000316e+01
7.427000000000000000e+08,1.000000000000000000e+00,2.000000000000000000e+00,3.000000000000000000e+00,-8.876464999999999606e+00,1.545312000000000126e+02,-2.123730000000000118e+01,9.469920999999999367e+01,-2.152733999999999881e+01,6.373046999999999684e+01,-9.679688000000000514e+00,1.740937000000000126e+02
7.550000000000000000e+08,1.000000000000000000e+00,2.000000000000000000e+00,3.000000000000000000e+00,-8.627440999999999249e+00,1.163085999999999984e+02,-2.229882999999999882e+01,2.761523000000000039e+01,-2.275780999999999921e+01,-2.579101999999999784e+00,-9.363770000000000593e+00,8.074218999999999369e+01
7.673000000000000000e+08,1.000000000000000000e+00,2.000000000000000000e+00,3.000000000000000000e+00,-8.334960999999999842e+00,7.736328000000000316e+01,-2.293847999999999843e+01,-4.286328000000000316e+01,-2.334082000000000079e+01,-7.044921999999999684e+01,-9.072753999999999763e+00,-1.665722999999999843e+01
7.796000000000000000e+08,1.000000000000000000e+00,2.000000000000000000e+00,3.000000000000000000e+00,-8.082031000000000631e+00,3.770508000000000237e+01,-2.408983999999999881e+01,-1.131171999999999969e+02,-2.418065999999999960e+01,-1.406171999999999969e+02,-9.248046999999999684e+00,-1.158358999999999952e+02
7.919000000000000000e+08,1.000000000000000000e+00,2.000000000000000000e+00,3.000000000000000000e+00,-8.078613000000000710e+00,-2.451416000000000039e+00,-2.509082000000000079e+01,1.798671999999999969e+02,-2.519140000000000157e+01,1.516093999999999937e+02,-9.075684000000000751e+00,1.503437999999999874e+02
8.042000000000000000e+08,1.000000000000000000e+00,2.000000000000000000e+00,3.000000000000000000e+00,-8.256347999999999132e+00,-4.185155999999999921e+01,-2.562303999999999959e+01,1.117968999999999937e+02,-2.571777000000000157e+01,8.443750000000000000e+01,-8.866699000000000552e+00,5.469921000000000078e+01
8.165000000000000000e+08,1.000000000000000000e+00,2.000000000000000000e+00,3.000000000000000000e+00,-8.367675999999999448e+00,-8.016795999999999367e+01,-2.660644999999999882e+01,4.206445000000000078e+01,-2.625488000000000000e+01,1.476562999999999981e+01,-9.122070000000000789e+00,-4.748436999999999841e+01
8.288000000000000000e+08,1.000000000000000000e+00,2.000000000000000000e+00,3.000000000000000000e+00,-8.201171999999999684e+00,-1.182930000000000064e+02,-2.750879000000000119e+01,-2.468262000000000000e+01,-2.731250000000000000e+01,-5.445897999999999683e+01,-8.936035000000000394e+00,-1.495156000000000063e+02
8.411000000000000000e+08,1.000000000000000000e+00,2.000000000000000000e+00,3.000000000000000000e+00,-7.914794999999999803e+00,-1.575234000000000094e+02,-2.814452999999999960e+01,-9.141405000000000314e+01,-2.808007999999999882e+01,-1.207733999999999952e+02,-8.661621000000000237e+00,1.142850999999999999e+02
8.534000000000000000e+08,1.000000000000000000e+00,2.000000000000000000e+00,3.000000000000000000e+00,-7.731933999999999862e+00,1.624765999999999906e+02,-2.852636000000000038e+01,-1.591796999999999969e+02,-2.859863000000000000e+01,1.697500000000000000e+02,-8.673339999999999606e+00,2.052440999999999960e+01
8.657000000000000000e+08,1.000000000000000000e+00,2.000000000000000000e+00,3.000000000000000000e+00,-7.647948999999999664e+00,1.227811999999999983e+02,-2.906738000000000000e+01,1.306014999999999873e+02,-2.937207000000000079e+01,1.012852000000000032e+02,-8.706542999999999921e+00,-7.635936999999999841e+01
8.780000000000000000e+08,1.000000000000000000e+00,2.000000000000000000e+00,3.000000000000000000e+00,-7.646728999999999665e+00,8.475780000000000314e+01,-2.984375000000000000e+01,6.055078000000000316e+01,-3.007714999999999961e+01,3.427539000000000158e+01,-8.539550999999999448e+00,-1.740000000000000000e+02
8.903000000000000000e+08,1.000000000000000000e+00,2.000000000000000000e+00,3.000000000000000000e+00,-7.512207000000000079e+00,4.750195999999999685e+01,-3.061914000000000158e+01,-7.812744000000000355e+00,-3.069238000000000000e+01,-3.490625000000000000e+01,-8.592772999999999328e+00,8.789063000000000159e+01
9.026000000000000000e+08,1.000000000000000000e+00,2.000000000000000000e+00,3.000000000000000000e+00,-7.418457000000000079e+00,9.756835999999999842e+00,-3.133983999999999881e+01,-7.598045999999999367e+01,-3.128125000000000000e+01,-1.023281000000000063e+02,-8.673828000000000316e+00,-1.327440999999999960e+01
